! Created Thu Nov 11 11:09:06 2010
!
!Created with skrf (http://scikit-rf.org).
# GHz S RI R 50.0
!freq ReS11 ImS11 ReS21 ImS21 ReS12 ImS12 ReS22 ImS22
1.0 0.2804702107175952 0.8240907474638195 -0.11829580397247859 0.47772063343240223 -0.11829580397247859 0.47772063343240223 0.6326131599828696 -0.5979880341377555
1.0909090909090908 0.38129720218467983 0.7446181892272618 -0.07523998686730865 0.5426740644754053 -0.07523998686730865 0.5426740644754053 0.5694979073353683 -0.6127935522364666
1.181818181818182 0.4587040603644567 0.6565875629261715 -0.02353772026632981 0.598271955669406 -0.02353772026632981 0.598271955669406 0.5088704353250845 -0.6185204304113384
1.2727272727272727 0.5141719600605005 0.5660090608920648 0.033694611536433425 0.6435259214895969 0.033694611536433425 0.6435259214895969 0.4522507535593766 -0.6166103448932315
1.3636363636363638 0.5504155209584993 0.4774555951667397 0.0936148075338537 0.6784653099034303 0.0936148075338537 0.6784653099034303 0.4005516114159221 -0.6086702700643016
1.4545454545454546 0.570693923432678 0.3940264858381917 0.15389798073666938 0.7038231210611072 0.15389798073666938 0.7038231210611072 0.3541589836049945 -0.5962548449420394
1.5454545454545454 0.5782968725141457 0.3175418296627461 0.21281041405085166 0.7207299364715597 0.21281041405085166 0.7207299364715597 0.31306234342717126 -0.5807340660518328
1.6363636363636362 0.5762288668730033 0.2488335910218992 0.26917174463098337 0.7304715660816056 0.26917174463098337 0.7304715660816056 0.27698897681275986 -0.5632361580747631
1.7272727272727273 0.5670583849979846 0.1880402103346986 0.3222618069892237 0.7343248566246415 0.3222618069892237 0.7343248566246415 0.24551715897995663 -0.544642687773967
1.8181818181818183 0.5528802297577796 0.13485653150576266 0.3717124930419148 0.7334623303004624 0.3717124930419148 0.7334623303004624 0.21815982059841005 -0.5256130946078583
1.9090909090909092 0.5353435618984075 0.08872374659825133 0.4174075222544287 0.7289076264444722 0.4174075222544287 0.7289076264444722 0.1944202417580787 -0.5066215570534232
2.0 0.5157108638989664 0.04896246262413968 0.45939988426709605 0.7215238931911683 0.45939988426709605 0.7215238931911683 0.17382547002739349 -0.48799561868872776
2.090909090909091 0.494925986125521 0.014859592693503424 0.4978488061227826 0.712021086067529 0.4978488061227826 0.712021086067529 0.15594383970959985 -0.4699511230904368
2.1818181818181817 0.4736793426681235 -0.014278882510992151 0.5329742199463736 0.7009725206570414 0.5329742199463736 0.7009725206570414 0.1403920568863522 -0.45262133900147433
2.2727272727272725 0.4524648400187849 -0.03909875003816081 0.5650253341649524 0.6888346884732306 0.5650253341649524 0.6888346884732306 0.1268359485246891 -0.4360800223234419
2.363636363636364 0.43162692398322206 -0.06018384646149278 0.5942598458729713 0.6759669656876094 0.5942598458729713 0.6759669656876094 0.11498769644985829 -0.42035904480250447
2.4545454545454546 0.411398097536242 -0.07805193522310203 0.6209308213123391 0.6626495422890393 0.6209308213123391 0.6626495422890393 0.1046013744432501 -0.4054615292639902
2.5454545454545454 0.3919281188190121 -0.09315619626043786 0.6452789095683412 0.6490989151458886 0.6452789095683412 0.6490989151458886 0.09546789277517576 -0.3913714459075807
2.6363636363636367 0.3733063334946254 -0.10588972909373577 0.6675281539892232 0.6354808496540195 0.6675281539892232 0.6354808496540195 0.08740997812695656 -0.3780605098110489
2.7272727272727275 0.3555785384511346 -0.11659143901809912 0.6878841590939457 0.621920994185161 0.6878841590939457 0.621920994185161 0.08027751474036364 -0.3654930659895846
2.8181818181818183 0.3387595906533225 -0.12555232605644845 0.7065337484777942 0.6085134472007383 0.7065337484777942 0.6085134472007383 0.07394338965570295 -0.35362949815310407
2.909090909090909 0.3228427585422837 -0.13302161842192564 0.7236455258124622 0.5953276033083176 0.7236455258124622 0.5953276033083176 0.0682998794896831 -0.34242856798531646
3.0 0.3078066078424708 -0.13921245825071887 0.739370947453606 0.5824135864640007 0.739370947453606 0.5824135864640007 0.06325555935581587 -0.33184898760472303
3.090909090909091 0.29362003649051877 -0.14430700986177136 0.753845651557152 0.5698065414721332 0.753845651557152 0.5698065414721332 0.05873268700765115 -0.3218504472589719
3.1818181818181817 0.2802459287069728 -0.14846095637872703 0.7671908816407063 0.5575300126465265 0.7671908816407063 0.5575300126465265 0.05466500479461791 -0.3123942595127579
3.272727272727273 0.26764378387011023 -0.15180740385724498 0.7795149050133209 0.545598597828006 0.7795149050133209 0.545598597828006 0.05099590093918277 -0.3034437361317383
3.363636363636364 0.25577158736801553 -0.15446023928830588 0.7909143678402967 0.5340200298846745 0.7909143678402967 0.5340200298846745 0.047676875379245344 -0.2949643808662785
3.4545454545454546 0.24458712311227 -0.15651700042199526 0.8014755555206945 0.5227968072677555 0.8014755555206945 0.5227968072677555 0.044666261287786245 -0.28692395737548093
3.5454545454545454 0.23404887640872607 -0.1580613178720739 0.8112755442289499 0.5119274700388496 0.8112755442289499 0.5119274700388496 0.04192815987529447 -0.27929247423644565
3.636363636363636 0.22411663761309136 -0.15916498751677435 0.8203832401468066 0.5014075974494344 0.8203832401468066 0.5014075974494344 0.03943155239962224 -0.2720421165583897
3.7272727272727275 0.2147518884047488 -0.1598897262989676 0.8288603092971238 0.49123058691668564 0.8288603092971238 0.49123058691668564 0.037149559068284176 -0.26514714482791724
3.8181818181818183 0.20591803120878152 -0.1602886586266969 0.8367620044811048 0.4813882613810987 0.8367620044811048 0.4813882613810987 0.035058819571785096 -0.25858377526728066
3.909090909090909 0.19758050645502273 -0.16040757452648605 0.8441378976175635 0.471871341902967 0.8441378976175635 0.471871341902967 0.033138974313874275 -0.2523300514760734
4.0 0.18970683059813082 -0.16028599496043222 0.8510325264543124 0.462669814404124 0.8510325264543124 0.462669814404124 0.03137222905130608 -0.24636571393031945
4.090909090909091 0.1822665790924657 -0.15995807450271665 0.8574859646080242 0.45377321323273306 0.8574859646080242 0.45377321323273306 0.02974298869598909 -0.24067207165792415
4.181818181818182 0.17523133204108762 -0.15945336696281778 0.8635343234777714 0.4451708393539664 0.8635343234777714 0.4451708393539664 0.028237548548855036 -0.23523187882730515
4.272727272727273 0.16857459543947173 -0.15879747554486434 0.8692101939543595 0.43685192715475285 0.8692101939543595 0.43685192715475285 0.026843833307754337 -0.2300292178840524
4.363636363636363 0.16227170738026736 -0.15801260570764544 0.8745430351300904 0.42880577086464533 0.8745430351300904 0.42880577086464533 0.02555117589415375 -0.2250493901103777
4.454545454545455 0.15629973595549376 -0.1571180359812964 0.8795595164742512 0.4210218192554925 0.8795595164742512 0.4210218192554925 0.024350129539206143 -0.22027881396494056
4.545454545454545 0.15063737364930677 -0.15613051954175688 0.8842838192215328 0.41348974544798517 0.8842838192215328 0.41348974544798517 0.023232307713267744 -0.21570493121543566
4.636363636363637 0.14526483158146145 -0.15506462728072912 0.8887379020477443 0.40619949721248105 0.8887379020477443 0.40619949721248105 0.022190247419714915 -0.2113161206523384
4.727272727272728 0.14016373590787093 -0.15393304137951874 0.8929417354913782 0.3991413320186795 0.8929417354913782 0.3991413320186795 0.021217292141784076 -0.20710161903319393
4.818181818181818 0.13531702791279598 -0.152746806948305 0.8969135090250382 0.3923058401965711 0.8969135090250382 0.3923058401965711 0.02030749136115702 -0.20305144882682244
4.909090909090909 0.13070886876481697 -0.15151554808315557 0.9006698141869725 0.3856839588674742 0.9006698141869725 0.3856839588674742 0.01945551408460934 -0.1991563522873944
5.0 0.1263245495018919 -0.1502476536828137 0.9042258067469467 0.37926697874819837 0.9042258067469467 0.37926697874819837 0.018656574240919443 -0.1954077313763192
5.090909090909091 0.12215040651934492 -0.14895043752317927 0.9075953504979327 0.37304654549177463 0.9075953504979327 0.37304654549177463 0.017906366161299085 -0.19179759305602676
5.181818181818182 0.11817374262860095 -0.14763027638180382 0.9107911449305192 0.36701465687998847 0.9107911449305192 0.36701465687998847 0.017201008646535836 -0.18831849949742166
5.272727272727272 0.11438275361155187 -0.14629272941447574 0.9138248387554346 0.36116365690681806 0.9138248387554346 0.36116365690681806 0.016536996363969075 -0.18496352276747996
5.363636363636363 0.11076646009894815 -0.1449426414917462 0.9167071309860692 0.3554862275726486 0.9167071309860692 0.3554862275726486 0.015911157516403263 -0.18172620359195574
5.454545454545455 0.10731464453871956 -0.14358423278894972 0.9194478610727764 0.3499753790349164 0.9194478610727764 0.3499753790349164 0.01532061689043774 -0.1786005138182964
5.545454545454546 0.10401779298237498 -0.14222117657552397 0.9220560893898044 0.3446244386222927 0.9220560893898044 0.3446244386222927 0.014762763529441884 -0.17558082223416194
5.636363636363637 0.10086704139772253 -0.14085666685716286 0.9245401692101153 0.3394270391092789 0.9245401692101153 0.3394270391092789 0.014235222391410047 -0.17266186342648662
5.727272727272728 0.09785412620892589 -0.1394934772782903 0.9269078111597865 0.3343771065603509 0.9269078111597865 0.3343771065603509 0.013735829448151195 -0.16983870939415605
5.818181818181818 0.09497133876660237 -0.13813401248494145 0.9291661410191778 0.3294688479829598 0.9291661410191778 0.3294688479829598 0.013262609762966397 -0.16710674365382738
5.909090909090909 0.09221148345842416 -0.13678035297299387 0.9313217516300063 0.32469673897314844 0.9313217516300063 0.32469673897314844 0.012813758151793085 -0.1644616376029601
6.0 0.08956783918245928 -0.1354342942985772 0.9333807495736883 0.3200555114933828 0.9333807495736883 0.3200555114933828 0.012387622089932796 -0.16189932892673004
6.090909090909091 0.08703412391974989 -0.13409738140201566 0.9353487972048153 0.3155401418871282 0.9353487972048153 0.3155401418871282 0.011982686574721093 -0.15941600185617513
6.181818181818182 0.08460446215829631 -0.13277093869019438 0.9372311505527626 0.3111458392069142 0.9372311505527626 0.3111458392069142 0.011597560695315985 -0.1570080691037515
6.272727272727272 0.0822733549368778 -0.131456096431747 0.9390326935427603 0.30686803391064676 0.9390326935427603 0.30686803391064676 0.011230965695393115 -0.1546721553195375
6.363636363636364 0.08003565229348376 -0.13015381394245623 0.9407579689339897 0.30270236696362945 0.9407579689339897 0.30270236696362945 0.010881724343963957 -0.15240508192679444
6.454545454545455 0.077886527919101 -0.12886489997253409 0.9424112063253991 0.29864467937012024 0.9424112063253991 0.29864467937012024 0.010548751454565478 -0.15020385320947635
6.545454545454546 0.07582145583304051 -0.1275900306514053 0.9439963475389718 0.29469100214769467 0.9439963475389718 0.29469100214769467 0.010231045414476588 -0.14806564353689605
6.636363636363637 0.07383618891060965 -0.12632976529756607 0.9455170696543829 0.29083754674939694 0.9455170696543829 0.29083754674939694 0.009927680603871633 -0.14598778562197892
6.727272727272728 0.07192673910777155 -0.12508456036002635 0.9469768059376288 0.2870806959323945 0.9469768059376288 0.2870806959323945 0.009637800600516062 -0.14396775971974837
6.818181818181818 0.07008935924032345 -0.12385478172251328 0.9483787648787445 0.28341699506701484 0.9483787648787445 0.28341699506701484 0.009360612079040535 -0.14200318368176204
6.909090909090909 0.06832052618714826 -0.12264071557131813 0.9497259475295963 0.2798431438764884 0.9497259475295963 0.2798431438764884 0.009095379325420542 -0.14009180379044478
7.0 0.06661692539818614 -0.12144257800153037 0.9510211633115598 0.2763559885950764 0.9510211633115598 0.2763559885950764 0.00884141929725044 -0.13823148630458795
7.090909090909091 0.06497543659803613 -0.12026052351392254 0.952267044444238 0.2729525145304359 0.952267044444238 0.2729525145304359 0.008598097169026531 -0.13642020965392226
7.181818181818182 0.06339312058549598 -0.11909465253529201 0.9534660591299429 0.2696298390148 0.9534660591299429 0.2696298390148 0.008364822309101254 -0.13465605722657384
7.272727272727272 0.06186720703800293 -0.11794501807827591 0.9546205236141894 0.2663852047287968 0.9546205236141894 0.2663852047287968 0.008141044641430943 -0.1329372106985632
7.363636363636364 0.060395083237841915 -0.11681163164211794 0.9557326132296193 0.2632159733813344 0.9557326132296193 0.2632159733813344 0.00792625135085906 -0.1312619438593026
7.454545454545455 0.058974283644204595 -0.11569446844321236 0.9568043725194935 0.2601196197288345 0.9568043725194935 0.2601196197288345 0.007719963895537325 -0.12962861689131827
7.545454545454546 0.05760248024180455 -0.11459347205334905 0.9578377245268296 0.2570937259172545 0.9578377245268296 0.2570937259172545 0.007521735294359727 -0.12803567106635072
7.636363636363637 0.05627747360274818 -0.11350855851401145 0.958834479326399 0.25413597613056776 0.958834479326399 0.25413597613056776 0.007331147660979732 -0.12648162382342226
7.727272727272728 0.05499718460387051 -0.11243961998682611 0.9597963418689058 0.2512441515298059 0.9597963418689058 0.2512441515298059 0.007147809959231366 -0.12496506419764201
7.818181818181818 0.05375964674673032 -0.11138652799301157 0.9607249191996478 0.24841612546724728 0.9607249191996478 0.24841612546724728 0.006971355957615254 -0.12348464857132405
7.909090909090909 0.05256299903201475 -0.11034913628837903 0.9616217271077366 0.24564985896088518 0.9616217271077366 0.24564985896088518 0.006801442363000091 -0.12203909672155731
8.0 0.051405479344253296 -0.10932728341492047 0.9624881962563928 0.24294339641491935 0.9624881962563928 0.24294339641491935 0.006637747115877858 -0.1206271881406694
8.09090909090909 0.05028541830650914 -0.10832079496519835 0.9633256778398668 0.24029486157262675 0.9633256778398668 0.24029486157262675 0.006479967831437905 -0.11924775860810413
8.181818181818182 0.049201233568155055 -0.10732948559152723 0.9641354488081255 0.2377024536886072 0.9641354488081255 0.2377024536886072 0.0063278203724197925 -0.1178996969941161
8.272727272727273 0.048151424491968665 -0.10635316078823201 0.9649187166964751 0.23516444390803254 0.9649187166964751 0.23516444390803254 0.006181037541200734 -0.11658194227738512
8.363636363636363 0.04713456720963058 -0.10539161847201538 0.9656766240937611 0.23267917184115708 0.9656766240937611 0.23267917184115708 0.006039367879895309 -0.11529348076019443
8.454545454545455 0.046149310017301375 -0.10444465038260926 0.9664102527796037 0.23024504232196574 0.9664102527796037 0.23024504232196574 0.005902574568417864 -0.11403334346621054
8.545454545454547 0.045194369085321165 -0.10351204332336865 0.9671206275582924 0.22786052234043436 0.9671206275582924 0.22786052234043436 0.005770434411489312 -0.11280060370716939
8.636363636363637 0.04426852445822466 -0.10259358025925107 0.9678087198143994 0.2255241381384561 0.9678087198143994 0.2255241381384561 0.005642736906494577 -0.11159437480591888
8.727272727272727 0.04337061632323136 -0.10168904128767323 0.9684754508128847 0.22323447246004965 0.9684754508128847 0.22323447246004965 0.005519283384911612 -0.11041380796431255
8.818181818181818 0.04249954152716068 -0.10079820449601058 0.9691216947643896 0.2209901619469942 0.9691216947643896 0.2209901619469942 0.005399886220759302 -0.10925809026539532
8.90909090909091 0.04165425032335398 -0.09992084671798354 0.9697482816745656 0.21878989467154997 0.9697482816745656 0.21878989467154997 0.0052843681001605025 -0.10812644280018371
9.0 0.0408337433316801 -0.0990567441998318 0.9703559999945972 0.21663240779841048 0.9703559999945972 0.21663240779841048 0.005172561346693439 -0.1070181189101319
9.090909090909092 0.04003706869605524 -0.09820567318596982 0.9709455990885757 0.21451648536847864 0.9709455990885757 0.21451648536847864 0.0050643072977161535 -0.10593240253707292
9.181818181818182 0.03926331942516533 -0.09736741043279439 0.971517791531997 0.21244095619752804 0.971517791531997 0.21244095619752804 0.004959455727319435 -0.10486860667311053
9.272727272727273 0.03851163090319905 -0.09654173365833754 0.9720732552544391 0.2104046918831818 0.9720732552544391 0.2104046918831818 0.004857864311963722 -0.10382607190348757
9.363636363636363 0.03778117855845361 -0.09572842193465961 0.9726126355383355 0.20840660491406454 0.9726126355383355 0.20840660491406454 0.004759398135234502 -0.10280416503603489
9.454545454545457 0.0370711756786218 -0.0949272560291281 0.9731365468847669 0.20644564687533892 0.9731365468847669 0.20644564687533892 0.004663929228477959 -0.10180227781128785
9.545454545454543 0.03638087136243261 -0.0941380187000618 0.9736455747562566 0.20452080674517173 0.9736455747562566 0.20452080674517173 0.004571336144376798 -0.10081982568779896
9.636363636363637 0.035709548598132905 -0.09336049495166525 0.9741402772057298 0.2026311092770343 0.9741402772057298 0.2026311092770343 0.004481503560796851 -0.09985624669762473
9.727272727272727 0.03505652246000801 -0.09259447225262345 0.9746211864000405 0.20077561346300749 0.9746211864000405 0.20077561346300749 0.004394321912470924 -0.0989110003673023
9.818181818181818 0.03442113841482486 -0.0918397407222919 0.9750888100457705 0.19895341107358008 0.9750888100457705 0.19895341107358008 0.004309687048307827 -0.09798356670001343
9.90909090909091 0.033802770730688915 -0.09109609328799273 0.9755436327243941 0.19716362526968878 0.9755436327243941 0.19716362526968878 0.004227499912309098 -0.09707344521493827
10.0 0.033200820981372926 -0.09036332581656034 0.9759861171433108 0.19540540928299996 0.9759861171433108 0.19540540928299996 0.004147666246250903 -0.09618015404009668
