! Created Thu Nov 11 11:09:06 2010
!
!Created with skrf (http://scikit-rf.org).
# GHz S RI R 50.0
!freq ReS11 ImS11 ReS21 ImS21 ReS12 ImS12 ReS22 ImS22
1e-09 0.2000000005546517 0.0 -3.995628515184612e-10 0.0 -3.995628515184612e-10 0.0 1.000000000665938 0.0
0.001001002 0.2005554576883302 0.0 -0.00040048205286388267 0.0 -0.00040048205286388267 0.0 1.0006672948646163 0.0
0.002002003 0.2011114169607929 0.0 -0.0008020034513412994 0.0 -0.0008020034513412994 0.0 1.0013359710760878 0.0
0.003003004 0.2016678808751655 0.0 -0.0012045677064894005 0.0 -0.0012045677064894005 0.0 1.0020060338090944 0.0
0.004004005 0.20222485194379886 0.0 -0.00160817794356854 0.0 -0.00160817794356854 0.0 1.0026774875916356 0.0
0.005005006 0.20278233268832246 0.0 -0.0020128373016782483 0.0 -0.0020128373016782483 0.0 1.0033503369710735 0.0
0.006006007 0.2033403256396978 0.0 -0.0024185489338308295 0.0 -0.0024185489338308295 0.0 1.004024586514237 0.0
0.007007008 0.20389883333827133 0.0 -0.00282531600702543 0.0 -0.00282531600702543 0.0 1.0047002408075267 0.0
0.008008009 0.2044578583338285 0.0 -0.0032331417023225956 0.0 -0.0032331417023225956 0.0 1.0053773044570211 0.0
0.00900901 0.2050174031856486 0.0 -0.0036420292149193104 0.0 -0.0036420292149193104 0.0 1.0060557820885818 0.0
0.010010011 0.20557747046255825 0.0 -0.004051981754224527 0.0 -0.004051981754224527 0.0 1.0067356783479622 0.0
0.011011012 0.20613806274298688 0.0 -0.004463002543935179 0.0 -0.004463002543935179 0.0 1.0074169979009142 0.0
0.012012013 0.20669918261502226 0.0 -0.004875094822112711 0.0 -0.004875094822112711 0.0 1.0080997454332976 0.0
0.013013014 0.20726083267646545 0.0 -0.005288261841260087 0.0 -0.005288261841260087 0.0 1.0087839256511884 0.0
0.014014015 0.2078230155348871 0.0 -0.005702506868399306 0.0 -0.005702506868399306 0.0 1.0094695432809893 0.0
0.015015016 0.2083857338076836 0.0 -0.0061178331851494475 0.0 -0.0061178331851494475 0.0 1.0101566030695406 0.0
0.016016017 0.2089489901221342 0.0 -0.006534244087805193 0.0 -0.006534244087805193 0.0 1.0108451097842306 0.0
0.017017018 0.20951278711545715 0.0 -0.006951742887415887 0.0 -0.006951742887415887 0.0 1.011535068213109 0.0
0.018018019 0.210077127434868 0.0 -0.007370332909865115 0.0 -0.007370332909865115 0.0 1.012226483164999 0.0
0.01901902 0.21064201373763686 0.0 -0.007790017495950804 0.0 -0.007790017495950804 0.0 1.01291935946961 0.0
0.020020021 0.21120744869114658 0.0 -0.008210800001465826 0.0 -0.008210800001465826 0.0 1.0136137019776539 0.0
0.021021022 0.21177343497295126 0.0 -0.008632683797279184 0.0 -0.008632683797279184 0.0 1.014309515560959 0.0
0.022022023 0.2123399752708353 0.0 -0.009055672269417687 0.0 -0.009055672269417687 0.0 1.0150068051125858 0.0
0.023023024 0.21290707228287253 0.0 -0.009479768819148169 0.0 -0.009479768819148169 0.0 1.0157055755469437 0.0
0.024024025 0.21347472871748552 0.0 -0.00990497686306029 0.0 -0.00990497686306029 0.0 1.0164058317999083 0.0
0.025025026 0.21404294729350642 0.0 -0.010331299833149838 0.0 -0.010331299833149838 0.0 1.0171075788289399 0.0
0.026026027 0.2146117307402366 0.0 -0.010758741176902611 0.0 -0.010758741176902611 0.0 1.017810821613202 0.0
0.027027028 0.21518108179750764 0.0 -0.011187304357378833 0.0 -0.011187304357378833 0.0 1.018515565153681 0.0
0.028028029 0.2157510032157426 0.0 -0.011616992853298173 0.0 -0.011616992853298173 0.0 1.019221814473307 0.0
0.02902903 0.21632149775601786 0.0 -0.012047810159125273 0.0 -0.012047810159125273 0.0 1.019929574617075 0.0
0.030030031 0.21689256819012478 0.0 -0.012479759785155885 0.0 -0.012479759785155885 0.0 1.0206388506521662 0.0
0.031031032 0.21746421730063192 0.0 -0.012912845257603554 0.0 -0.012912845257603554 0.0 1.0213496476680723 0.0
0.032032033 0.21803644788094853 0.0 -0.013347070118686927 0.0 -0.013347070118686927 0.0 1.022061970776718 0.0
0.033033034 0.21860926273538706 0.0 -0.01378243792671757 0.0 -0.01378243792671757 0.0 1.0227758251125865 0.0
0.034034035 0.219182664679227 0.0 -0.014218952256188445 0.0 -0.014218952256188445 0.0 1.0234912158328433 0.0
0.035035036 0.21975665653877924 0.0 -0.014656616697862928 0.0 -0.014656616697862928 0.0 1.0242081481174643 0.0
0.036036037 0.2203312411514501 0.0 -0.01509543485886446 0.0 -0.01509543485886446 0.0 1.024926627169362 0.0
0.037037038 0.2209064213658063 0.0 -0.015535410362766745 0.0 -0.015535410362766745 0.0 1.025646658214513 0.0
0.038038039 0.22148220004164063 0.0 -0.015976546849684636 0.0 -0.015976546849684636 0.0 1.026368246502087 0.0
0.03903904 0.22205858005003717 0.0 -0.016418847976365548 0.0 -0.016418847976365548 0.0 1.0270913973045765 0.0
0.040040041 0.22263556427343772 0.0 -0.01686231741628155 0.0 -0.01686231741628155 0.0 1.0278161159179275 0.0
0.041041042 0.22321315560570834 0.0 -0.017306958859722006 0.0 -0.017306958859722006 0.0 1.0285424076616703 0.0
0.042042043 0.22379135695220664 0.0 -0.01775277601388694 0.0 -0.01775277601388694 0.0 1.0292702778790517 0.0
0.043043044 0.224370171229849 0.0 -0.018199772602980942 0.0 -0.018199772602980942 0.0 1.0299997319371696 0.0
0.044044045 0.2249496013671783 0.0 -0.01864795236830773 0.0 -0.01864795236830773 0.0 1.0307307752271044 0.0
0.045045046 0.2255296503044329 0.0 -0.019097319068365377 0.0 -0.019097319068365377 0.0 1.031463413164056 0.0
0.046046047 0.22611032099361508 0.0 -0.019547876478942173 0.0 -0.019547876478942173 0.0 1.0321976511874789 0.0
0.047047048 0.22669161639856014 0.0 -0.019999628393213124 0.0 -0.019999628393213124 0.0 1.0329334947612185 0.0
0.048048049 0.2272735394950068 0.0 -0.020452578621837098 0.0 -0.020452578621837098 0.0 1.0336709493736498 0.0
0.04904905 0.22785609327066683 0.0 -0.020906730993054682 0.0 -0.020906730993054682 0.0 1.0344100205378153 0.0
0.050050051 0.22843928072529596 0.0 -0.021362089352786627 0.0 -0.021362089352786627 0.0 1.035150713791564 0.0
0.051051052 0.22902310487076513 0.0 -0.021818657564733016 0.0 -0.021818657564733016 0.0 1.0358930346976933 0.0
0.052052053 0.2296075687311318 0.0 -0.022276439510473103 0.0 -0.022276439510473103 0.0 1.036636988844089 0.0
0.053053054 0.2301926753427126 0.0 -0.02273543908956584 0.0 -0.02273543908956584 0.0 1.0373825818438691 0.0
0.054054055 0.23077842775415525 0.0 -0.02319566021965101 0.0 -0.02319566021965101 0.0 1.038129819335525 0.0
0.055055056 0.2313648290265125 0.0 -0.023657106836551225 0.0 -0.023657106836551225 0.0 1.038878706983069 0.0
0.056056057 0.23195188223331473 0.0 -0.024119782894374393 0.0 -0.024119782894374393 0.0 1.039629250476176 0.0
0.057057058 0.23253959046064468 0.0 -0.024583692365617082 0.0 -0.024583692365617082 0.0 1.040381455530333 0.0
0.058058059 0.2331279568072121 0.0 -0.02504883924126853 0.0 -0.02504883924126853 0.0 1.0411353278869846 0.0
0.05905906 0.2337169843844283 0.0 -0.02551522753091529 0.0 -0.02551522753091529 0.0 1.0418908733136814 0.0
0.060060061 0.2343066763164819 0.0 -0.02598286126284672 0.0 -0.02598286126284672 0.0 1.0426480976042298 0.0
0.061061062 0.2348970357404154 0.0 -0.026451744484161103 0.0 -0.026451744484161103 0.0 1.0434070065788428 0.0
0.062062063 0.2354880658062012 0.0 -0.026921881260872603 0.0 -0.026921881260872603 0.0 1.04416760608429 0.0
0.063063064 0.23607976967681885 0.0 -0.02739327567801877 0.0 -0.02739327567801877 0.0 1.0449299019940514 0.0
0.064064065 0.23667215052833296 0.0 -0.02786593183976906 0.0 -0.02786593183976906 0.0 1.045693900208471 0.0
0.065065066 0.23726521154997107 0.0 -0.0283398538695338 0.0 -0.0283398538695338 0.0 1.0464596066549086 0.0
0.066066067 0.23785895594420264 0.0 -0.028815045910074187 0.0 -0.028815045910074187 0.0 1.0472270272878998 0.0
0.067067068 0.23845338692681808 0.0 -0.02929151212361288 0.0 -0.02929151212361288 0.0 1.047996168089309 0.0
0.068068069 0.23904850772700845 0.0 -0.029769256691945314 0.0 -0.029769256691945314 0.0 1.0487670350684886 0.0
0.06906907 0.23964432158744634 0.0 -0.030248283816552084 0.0 -0.030248283816552084 0.0 1.0495396342624383 0.0
0.070070071 0.2402408317643658 0.0 -0.030728597718711653 0.0 -0.030728597718711653 0.0 1.0503139717359646 0.0
0.071071072 0.24083804152764499 0.0 -0.031210202639614288 0.0 -0.031210202639614288 0.0 1.0510900535818413 0.0
0.072072073 0.24143595416088695 0.0 -0.031693102840476474 0.0 -0.031693102840476474 0.0 1.051867885920972 0.0
0.073073074 0.24203457296150288 0.0 -0.03217730260265631 0.0 -0.03217730260265631 0.0 1.0526474749025543 0.0
0.074074075 0.24263390124079548 0.0 -0.03266280622776966 0.0 -0.03266280622776966 0.0 1.053428826704243 0.0
0.075075076 0.24323394232404166 0.0 -0.03314961803780699 0.0 -0.03314961803780699 0.0 1.054211947532317 0.0
0.076076077 0.2438346995505779 0.0 -0.0336377423752513 0.0 -0.0336377423752513 0.0 1.0549968436218438 0.0
0.077077078 0.24443617627388423 0.0 -0.03412718360319658 0.0 -0.03412718360319658 0.0 1.0557835212368507 0.0
0.078078079 0.24503837586167057 0.0 -0.03461794610546735 0.0 -0.03461794610546735 0.0 1.0565719866704906 0.0
0.07907908 0.24564130169596182 0.0 -0.03511003428673879 0.0 -0.03511003428673879 0.0 1.0573622462452146 0.0
0.080080081 0.24624495717318517 0.0 -0.03560345257265798 0.0 -0.03560345257265798 0.0 1.0581543063129426 0.0
0.081081082 0.2468493457042571 0.0 -0.0360982054099658 0.0 -0.0360982054099658 0.0 1.0589481732552357 0.0
0.082082083 0.24745447071467092 0.0 -0.03659429726661972 0.0 -0.03659429726661972 0.0 1.0597438534834702 0.0
0.083083084 0.24806033564458585 0.0 -0.037091732631917604 0.0 -0.037091732631917604 0.0 1.0605413534390136 0.0
0.084084085 0.24866694394891573 0.0 -0.03759051601662212 0.0 -0.03759051601662212 0.0 1.0613406795934 0.0
0.085085086 0.2492742990974183 0.0 -0.0380906519530863 0.0 -0.0380906519530863 0.0 1.062141838448507 0.0
0.086086087 0.2498824045747864 0.0 -0.03859214499537983 0.0 -0.03859214499537983 0.0 1.062944836536737 0.0
0.087087088 0.25049126388073817 0.0 -0.03909499971941624 0.0 -0.03909499971941624 0.0 1.0637496804211952 0.0
0.088088089 0.25110088053010915 0.0 -0.03959922072308116 0.0 -0.03959922072308116 0.0 1.0645563766958712 0.0
0.08908909 0.2517112580529437 0.0 -0.04010481262636115 0.0 -0.04010481262636115 0.0 1.0653649319858216 0.0
0.090090091 0.252322399994589 0.0 -0.040611780071473855 0.0 -0.040611780071473855 0.0 1.0661753529473557 0.0
0.091091092 0.2529343099157877 0.0 -0.04112012772299879 0.0 -0.04112012772299879 0.0 1.0669876462682184 0.0
0.092092093 0.2535469913927725 0.0 -0.041629860268009196 0.0 -0.041629860268009196 0.0 1.067801818667779 0.0
0.093093094 0.25416044801736054 0.0 -0.04214098241620473 0.0 -0.04214098241620473 0.0 1.0686178768972159 0.0
0.094094095 0.2547746833970497 0.0 -0.04265349890004524 0.0 -0.04265349890004524 0.0 1.06943582773971 0.0
0.095095096 0.25538970115511417 0.0 -0.04316741447488544 0.0 -0.04316741447488544 0.0 1.070255678010632 0.0
0.096096097 0.2560055049307011 0.0 -0.04368273391911044 0.0 -0.04368273391911044 0.0 1.0710774345577365 0.0
0.097097098 0.2566220983789293 0.0 -0.04419946203427247 0.0 -0.04419946203427247 0.0 1.0719011042613535 0.0
0.098098099 0.257239485170986 0.0 -0.04471760364522834 0.0 -0.04471760364522834 0.0 1.0727266940345843 0.0
0.0990991 0.2578576689942267 0.0 -0.045237163600278046 0.0 -0.045237163600278046 0.0 1.0735542108234974 0.0
0.100100101 0.2584766535522749 0.0 -0.04575814677130446 0.0 -0.04575814677130446 0.0 1.0743836616073266 0.0
0.101101102 0.25909644256512165 0.0 -0.046280558053913665 0.0 -0.046280558053913665 0.0 1.0752150533986684 0.0
0.102102103 0.25971703976922783 0.0 -0.04680440236757679 0.0 -0.04680440236757679 0.0 1.0760483932436837 0.0
0.103103104 0.26033844891762453 0.0 -0.04732968465577238 0.0 -0.04732968465577238 0.0 1.0768836882222996 0.0
0.104104105 0.26096067378001697 0.0 -0.04785640988613027 0.0 -0.04785640988613027 0.0 1.0777209454484122 0.0
0.105105106 0.26158371814288656 0.0 -0.04838458305057604 0.0 -0.04838458305057604 0.0 1.0785601720700908 0.0
0.106106107 0.2622075858095956 0.0 -0.04891420916547693 0.0 -0.04891420916547693 0.0 1.0794013752697857 0.0
0.107107108 0.262832280600492 0.0 -0.049445293271788544 0.0 -0.049445293271788544 0.0 1.0802445622645345 0.0
0.108108109 0.2634578063530144 0.0 -0.04997784043520261 0.0 -0.04997784043520261 0.0 1.081089740306172 0.0
0.10910911 0.2640841669217986 0.0 -0.05051185574629609 0.0 -0.05051185574629609 0.0 1.0819369166815411 0.0
0.110110111 0.26471136617878477 0.0 -0.051047344320681066 0.0 -0.051047344320681066 0.0 1.0827860987127045 0.0
0.111111112 0.265339408013325 0.0 -0.0515843112991559 0.0 -0.0515843112991559 0.0 1.083637293757159 0.0
0.112112113 0.265968296332292 0.0 -0.05212276184785737 0.0 -0.05212276184785737 0.0 1.0844905092080503 0.0
0.113113114 0.2665980350601881 0.0 -0.0526627011584141 0.0 -0.0526627011584141 0.0 1.085345752494391 0.0
0.114114115 0.26722862813925624 0.0 -0.05320413444810092 0.0 -0.05320413444810092 0.0 1.0862030310812778 0.0
0.115115116 0.26786007952958985 0.0 -0.053747066959994406 0.0 -0.053747066959994406 0.0 1.0870623524701133 0.0
0.116116117 0.26849239320924534 0.0 -0.05429150396312977 0.0 -0.05429150396312977 0.0 1.0879237241988255 0.0
0.117117118 0.2691255731743545 0.0 -0.05483745075265849 0.0 -0.05483745075265849 0.0 1.088787153842094 0.0
0.118118119 0.26975962343923765 0.0 -0.055384912650007515 0.0 -0.055384912650007515 0.0 1.0896526490115723 0.0
0.11911912 0.2703945480365179 0.0 -0.05593389500303936 0.0 -0.05593389500303936 0.0 1.0905202173561157 0.0
0.120120121 0.2710303510172367 0.0 -0.05648440318621357 0.0 -0.05648440318621357 0.0 1.0913898665620099 0.0
0.121121122 0.27166703645096907 0.0 -0.05703644260074923 0.0 -0.05703644260074923 0.0 1.092261604353201 0.0
0.122122123 0.27230460842594045 0.0 -0.05759001867478866 0.0 -0.05759001867478866 0.0 1.0931354384915264 0.0
0.123123124 0.2729430710491448 0.0 -0.05814513686356266 0.0 -0.05814513686356266 0.0 1.094011376776949 0.0
0.124124125 0.27358242844646224 0.0 -0.058701802649556344 0.0 -0.058701802649556344 0.0 1.094889427047792 0.0
0.125125126 0.274222684762779 0.0 -0.05926002154267688 0.0 -0.05926002154267688 0.0 1.0957695971809753 0.0
0.126126127 0.2748638441621074 0.0 -0.05981979908042202 0.0 -0.05981979908042202 0.0 1.096651895092256 0.0
0.127127128 0.27550591082770687 0.0 -0.060381140828050045 0.0 -0.060381140828050045 0.0 1.0975363287364661 0.0
0.128128129 0.27614888896220624 0.0 -0.06094405237875106 0.0 -0.06094405237875106 0.0 1.0984229061077575 0.0
0.12912913 0.2767927827877259 0.0 -0.061508539353819267 0.0 -0.061508539353819267 0.0 1.0993116352398429 0.0
0.130130131 0.2774375965460025 0.0 -0.06207460740282696 0.0 -0.06207460740282696 0.0 1.1002025242062454 0.0
0.131131132 0.2780833344985129 0.0 -0.0626422622037994 0.0 -0.0626422622037994 0.0 1.101095581120543 0.0
0.132132133 0.2787300009266001 0.0 -0.0632115094633913 0.0 -0.0632115094633913 0.0 1.1019908141366186 0.0
0.133133134 0.2793776001316003 0.0 -0.06378235491706442 0.0 -0.06378235491706442 0.0 1.1028882314489135 0.0
0.134134135 0.28002613643496893 0.0 -0.06435480432926663 0.0 -0.06435480432926663 0.0 1.1037878412926774 0.0
0.135135136 0.2806756141784109 0.0 -0.06492886349361231 0.0 -0.06492886349361231 0.0 1.1046896519442269 0.0
0.136136137 0.28132603772400877 0.0 -0.065504538233064 0.0 -0.065504538233064 0.0 1.1055936717212 0.0
0.137137138 0.2819774114543537 0.0 -0.06608183440011556 0.0 -0.06608183440011556 0.0 1.1064999089828165 0.0
0.138138139 0.2826297397726763 0.0 -0.0666607578769765 0.0 -0.0666607578769765 0.0 1.1074083721301382 0.0
0.13913914 0.28328302710297953 0.0 -0.06724131457575802 0.0 -0.06724131457575802 0.0 1.108319069606332 0.0
0.140140141 0.28393727789017176 0.0 -0.0678235104386602 0.0 -0.0678235104386602 0.0 1.1092320098969353 0.0
0.141141142 0.28459249660020086 0.0 -0.06840735143816051 0.0 -0.06840735143816051 0.0 1.1101472015301221 0.0
0.142142143 0.2852486877201899 0.0 -0.0689928435772043 0.0 -0.0689928435772043 0.0 1.1110646530769726 0.0
0.143143144 0.2859058557585736 0.0 -0.06957999288939594 0.0 -0.06957999288939594 0.0 1.1119843731517436 0.0
0.144144145 0.2865640052452348 0.0 -0.07016880543919199 0.0 -0.07016880543919199 0.0 1.1129063704121418 0.0
0.145145146 0.287223140731644 0.0 -0.07075928732209581 0.0 -0.07075928732209581 0.0 1.1138306535595988 0.0
0.146146147 0.28788326679099835 0.0 -0.07135144466485324 0.0 -0.07135144466485324 0.0 1.1147572313395484 0.0
0.147147148 0.28854438801836213 0.0 -0.07194528362565031 0.0 -0.07194528362565031 0.0 1.115686112541706 0.0
0.148148149 0.2892065090308079 0.0 -0.07254081039431186 0.0 -0.07254081039431186 0.0 1.116617306000349 0.0
0.14914915 0.28986963446756026 0.0 -0.0731380311925024 0.0 -0.0731380311925024 0.0 1.1175508205946014 0.0
0.150150151 0.29053376899013844 0.0 -0.07373695227392782 0.0 -0.07373695227392782 0.0 1.1184866652487198 0.0
0.151151152 0.2911989172825019 0.0 -0.07433757992453904 0.0 -0.07433757992453904 0.0 1.11942484893238 0.0
0.152152153 0.29186508405119566 0.0 -0.07493992046273712 0.0 -0.07493992046273712 0.0 1.120365380660968 0.0
0.153153154 0.2925322740254979 0.0 -0.07554398023957995 0.0 -0.07554398023957995 0.0 1.1213082694958725 0.0
0.154154155 0.29320049195756775 0.0 -0.0761497656389905 0.0 -0.0761497656389905 0.0 1.1222535245447784 0.0
0.155155156 0.29386974262259463 0.0 -0.07675728307796663 0.0 -0.07675728307796663 0.0 1.1232011549619652 0.0
0.156156157 0.294540030818949 0.0 -0.07736653900679281 0.0 -0.07736653900679281 0.0 1.1241511699486046 0.0
0.157157158 0.2952113613683334 0.0 -0.07797753990925299 0.0 -0.07797753990925299 0.0 1.125103578753063 0.0
0.158158159 0.2958837391159356 0.0 -0.07859029230284548 0.0 -0.07859029230284548 0.0 1.1260583906712043 0.0
0.15915916 0.29655716893058276 0.0 -0.07920480273899944 0.0 -0.07920480273899944 0.0 1.1270156150466972 0.0
0.160160161 0.2972316557048958 0.0 -0.07982107780329281 0.0 -0.07982107780329281 0.0 1.127975261271323 0.0
0.161161162 0.2979072043554462 0.0 -0.08043912411567242 0.0 -0.08043912411567242 0.0 1.1289373387852857 0.0
0.162162163 0.2985838198229139 0.0 -0.08105894833067515 0.0 -0.08105894833067515 0.0 1.129901857077527 0.0
0.163163164 0.29926150707224497 0.0 -0.08168055713765136 0.0 -0.08168055713765136 0.0 1.1308688256860404 0.0
0.164164165 0.29994027109281257 0.0 -0.08230395726098991 0.0 -0.08230395726098991 0.0 1.1318382541981904 0.0
0.165165166 0.30062011689857765 0.0 -0.0829291554603447 0.0 -0.0829291554603447 0.0 1.1328101522510323 0.0
0.166166167 0.30130104952825165 0.0 -0.08355615853086336 0.0 -0.08355615853086336 0.0 1.133784529531636 0.0
0.167167168 0.30198307404545993 0.0 -0.0841849733034173 0.0 -0.0841849733034173 0.0 1.134761395777412 0.0
0.168168169 0.302666195538907 0.0 -0.08481560664483406 0.0 -0.08481560664483406 0.0 1.135740760776438 0.0
0.16916917 0.30335041912254274 0.0 -0.08544806545813105 0.0 -0.08544806545813105 0.0 1.1367226343677916 0.0
0.170170171 0.30403574993572974 0.0 -0.0860823566827512 0.0 -0.0860823566827512 0.0 1.1377070264418818 0.0
0.171171172 0.30472219314341276 0.0 -0.08671848729480083 0.0 -0.08671848729480083 0.0 1.1386939469407873 0.0
0.172172173 0.30540975393628816 0.0 -0.0873564643072888 0.0 -0.0873564643072888 0.0 1.1396834058585927 0.0
0.173173174 0.30609843753097626 0.0 -0.08799629477036812 0.0 -0.08799629477036812 0.0 1.1406754132417314 0.0
0.174174175 0.3067882491701931 0.0 -0.08863798577157896 0.0 -0.08863798577157896 0.0 1.1416699791893288 0.0
0.175175176 0.30747919412292624 0.0 -0.08928154443609401 0.0 -0.08928154443609401 0.0 1.1426671138535491 0.0
0.176176177 0.3081712776846089 0.0 -0.08992697792696548 0.0 -0.08992697792696548 0.0 1.1436668274399457 0.0
0.177177178 0.30886450517729763 0.0 -0.09057429344537422 0.0 -0.09057429344537422 0.0 1.1446691302078116 0.0
0.178178179 0.3095588819498506 0.0 -0.09122349823088065 0.0 -0.09122349823088065 0.0 1.1456740324705355 0.0
0.17917918 0.3102544133781077 0.0 -0.09187459956167802 0.0 -0.09187459956167802 0.0 1.1466815445959604 0.0
0.180180181 0.31095110486507127 0.0 -0.09252760475484724 0.0 -0.09252760475484724 0.0 1.147691677006742 0.0
0.181181182 0.31164896184108865 0.0 -0.09318252116661396 0.0 -0.09318252116661396 0.0 1.1487044401807143 0.0
